
T0DB0 000:353 SEGGER J-Link V4.98b Log File (0000ms, 0274ms total)
T0DB0 000:353 DLL Compiled: Apr 10 2015 20:15:52 (0000ms, 0274ms total)
T0DB0 000:353 Logging started @ 2017-05-08 09:21 (0000ms, 0274ms total)
T0DB0 000:353 JLINK_SetWarnOutHandler(...) (0000ms, 0274ms total)
T0DB0 000:353 JLINK_OpenEx(...)
Firmware: J-Link ARM V8 compiled Jan 31 2018 18:34:52
Hardware: V8.00
S/N: 20080643
Feature(s): RDI,FlashDL,FlashBP,JFlash,GDBFull  returns O.K. (0269ms, 0543ms total)
T0DB0 000:622 JLINK_SetErrorOutHandler(...) (0000ms, 0543ms total)
T0DB0 000:622 JLINK_ExecCommand("ProjectFile = "J:\STM32\soft\stm32f1_fatfs\proj\JLinkSettings.ini"", ...)  returns 0x00 (0001ms, 0544ms total)
T0DB0 000:623 JLINK_ExecCommand("Device = STM32F103C8", ...)Device "STM32F103C8" selected.  returns 0x00 (0000ms, 0544ms total)
T0DB0 000:623 JLINK_ExecCommand("DisableConnectionTimeout", ...)  returns 0x01 (0000ms, 0544ms total)
T0DB0 000:623 JLINK_GetHardwareVersion()  returns 0x13880 (0000ms, 0544ms total)
T0DB0 000:623 JLINK_GetDLLVersion()  returns 49802 (0000ms, 0544ms total)
T0DB0 000:623 JLINK_GetFirmwareString(...) (0000ms, 0544ms total)
T0DB0 000:623 JLINK_GetDLLVersion()  returns 49802 (0000ms, 0544ms total)
T0DB0 000:623 JLINK_GetCompileDateTime() (0000ms, 0544ms total)
T0DB0 000:623 JLINK_GetFirmwareString(...) (0000ms, 0544ms total)
T0DB0 000:624 JLINK_GetHardwareVersion()  returns 0x13880 (0000ms, 0544ms total)
T0DB0 000:624 JLINK_TIF_Select(JLINKARM_TIF_SWD)  returns 0x00 (0002ms, 0546ms total)
T0DB0 000:626 JLINK_SetSpeed(5000) (0000ms, 0546ms total)
T0DB0 000:626 JLINK_GetId() >0x108 TIF>Found SWD-DP with ID 0x1BA01477 >0x0D TIF> >0x28 TIF> >0x0D TIF> >0x28 TIF> >0x0D TIF> >0x21 TIF> >0x0D TIF> >0x28 TIF> >0x0D TIF> >0x28 TIF> >0x0D TIF> >0x28 TIF> >0x0D TIF> >0x21 TIF> >0x0D TIF> >0x21 TIF> >0x0D TIF> >0x28 TIF> >0x0D TIF> >0x21 TIF> >0x0D TIF> >0x21 TIF> >0x108 TIF>Found SWD-DP with ID 0x1BA01477 >0x0D TIF> >0x21 TIF> >0x0D TIF> >0x28 TIF> >0x0D TIF> >0x28 TIF> >0x0D TIF> >0x21 TIF> >0x0D TIF> >0x28 TIF> >0x0D TIF> >0x21 TIF> >0x0D TIF> >0x21 TIF>
 >0x0D TIF> >0x21 TIF> >0x0D TIF> >0x28 TIF> >0x0D TIF> >0x21 TIF> >0x0D TIF> >0x28 TIF> >0x0D TIF> >0x28 TIF> >0x0D TIF> >0x21 TIF> >0x0D TIF> >0x28 TIF> >0x0D TIF> >0x28 TIF> >0x0D TIF> >0x28 TIF> >0x0D TIF> >0x21 TIF> >0x0D TIF> >0x21 TIF> >0x0D TIF> >0x28 TIF> >0x0D TIF> >0x21 TIF> >0x0D TIF> >0x21 TIF>Found Cortex-M3 r2p1, Little endian. >0x0D TIF> >0x28 TIF> -- CPU_WriteMem(4 bytes @ 0xE0002000) -- CPU_ReadMem(4 bytes @ 0xE000EDF0) -- CPU_ReadMem(4 bytes @ 0xE0002000)
FPUnit: 6 code (BP) slots and 2 literal slots -- CPU_ReadMem(4 bytes @ 0xE000EDFC) -- CPU_ReadMem(4 bytes @ 0xE0001000) -- CPU_WriteMem(4 bytes @ 0xE0001000) -- CPU_ReadMem(4 bytes @ 0xE000ED88) -- CPU_WriteMem(4 bytes @ 0xE000ED88) -- CPU_ReadMem(4 bytes @ 0xE000ED88) -- CPU_WriteMem(4 bytes @ 0xE000ED88)CoreSight components:ROMTbl 0 @ E00FF000 -- CPU_ReadMem(16 bytes @ 0xE00FF000) -- CPU_ReadMem(16 bytes @ 0xE000EFF0) -- CPU_ReadMem(16 bytes @ 0xE000EFE0)
ROMTbl 0 [0]: FFF0F000, CID: B105E00D, PID: 000BB000 SCS -- CPU_ReadMem(16 bytes @ 0xE0001FF0) -- CPU_ReadMem(16 bytes @ 0xE0001FE0)ROMTbl 0 [1]: FFF02000, CID: B105E00D, PID: 003BB002 DWT -- CPU_ReadMem(16 bytes @ 0xE0002FF0) -- CPU_ReadMem(16 bytes @ 0xE0002FE0)ROMTbl 0 [2]: FFF03000, CID: B105E00D, PID: 002BB003 FPB -- CPU_ReadMem(16 bytes @ 0xE0000FF0) -- CPU_ReadMem(16 bytes @ 0xE0000FE0)ROMTbl 0 [3]: FFF01000, CID: B105E00D, PID: 003BB001 ITM -- CPU_ReadMem(16 bytes @ 0xE00FF010)
 -- CPU_ReadMem(16 bytes @ 0xE0040FF0) -- CPU_ReadMem(16 bytes @ 0xE0040FE0)ROMTbl 0 [4]: FFF41000, CID: B105900D, PID: 003BB923 TPIU-Lite >0x0D TIF> >0x21 TIF>  returns 0x1BA01477 (0050ms, 0596ms total)
T0DB0 000:676 JLINK_GetDLLVersion()  returns 49802 (0000ms, 0596ms total)
T0DB0 000:676 JLINK_CORE_GetFound()  returns 0x30000FF (0000ms, 0596ms total)
T0DB0 000:676 JLINK_GetDebugInfo(0x100) -- Value=0xE00FF003  returns 0x00 (0000ms, 0596ms total)
T0DB0 000:676 JLINK_GetDebugInfo(0x100) -- Value=0xE00FF003  returns 0x00 (0000ms, 0596ms total)
T0DB0 000:676 JLINK_GetDebugInfo(0x101)  returns 0xFFFFFFFF (0000ms, 0596ms total)
T0DB0 000:676 JLINK_ReadMem (0xE0041FF0, 0x0010 Bytes, ...) -- CPU is running -- CPU_ReadMem(16 bytes @ 0xE0041FF0) - Data: 00 00 00 00 00 00 00 00 00 00 00 00 00 00 00 00  returns 0x00 (0001ms, 0597ms total)
T0DB0 000:677 JLINK_GetDebugInfo(0x102)  returns 0xFFFFFFFF (0000ms, 0597ms total)
T0DB0 000:677 JLINK_GetDebugInfo(0x103)  returns 0xFFFFFFFF (0000ms, 0597ms total)
T0DB0 000:677 JLINK_ReadMem (0xE0040FF0, 0x0010 Bytes, ...) -- CPU is running -- CPU_ReadMem(16 bytes @ 0xE0040FF0) - Data: 0D 00 00 00 90 00 00 00 05 00 00 00 B1 00 00 00  returns 0x00 (0001ms, 0598ms total)
T0DB0 000:678 JLINK_GetDebugInfo(0x104)  returns 0xFFFFFFFF (0000ms, 0598ms total)
T0DB0 000:678 JLINK_GetDebugInfo(0x105)  returns 0xFFFFFFFF (0000ms, 0598ms total)
T0DB0 000:678 JLINK_GetDebugInfo(0x106)  returns 0xFFFFFFFF (0000ms, 0598ms total)
T0DB0 000:678 JLINK_GetDebugInfo(0x107)  returns 0xFFFFFFFF (0000ms, 0598ms total)
T0DB0 000:678 JLINK_GetDebugInfo(0x10C)  returns 0xFFFFFFFF (0000ms, 0598ms total)
T0DB0 000:678 JLINK_ReadMemU32(0xE000ED00, 0x0001 Items, ...) -- CPU is running -- CPU_ReadMem(4 bytes @ 0xE000ED00) - Data: 31 C2 2F 41  returns 0x01 (0001ms, 0599ms total)
T0DB0 000:679 JLINK_SetResetType(JLINKARM_RESET_TYPE_NORMAL)  returns JLINKARM_RESET_TYPE_NORMAL (0000ms, 0599ms total)
T0DB0 000:679 JLINK_Reset() -- CPU_WriteMem(4 bytes @ 0xE0002000) -- CPU_ReadMem(4 bytes @ 0xE000EDFC) -- CPU_WriteMem(4 bytes @ 0xE000EDFC) -- CPU_ReadMem(4 bytes @ 0xE0001000) (0014ms, 0613ms total)
T0DB0 000:693 JLINK_ReadReg(R15 (PC))  returns 0x08000100 (0000ms, 0613ms total)
T0DB0 000:693 JLINK_ReadReg(XPSR)  returns 0x01000000 (0000ms, 0613ms total)
T0DB0 000:693 JLINK_Halt()  returns 0x00 (0000ms, 0613ms total)
T0DB0 000:693 JLINK_IsHalted()  returns TRUE (0000ms, 0613ms total)
T0DB0 000:693 JLINK_ReadMemU32(0xE000EDF0, 0x0001 Items, ...) -- CPU_ReadMem(4 bytes @ 0xE000EDF0) - Data: 03 00 03 00  returns 0x01 (0001ms, 0614ms total)
T0DB0 000:694 JLINK_WriteU32(0xE000EDF0, 0xA05F0003) -- CPU_WriteMem(4 bytes @ 0xE000EDF0)  returns 0x00 (0000ms, 0614ms total)
T0DB0 000:694 JLINK_WriteU32(0xE000EDFC, 0x01000000) -- CPU_WriteMem(4 bytes @ 0xE000EDFC)  returns 0x00 (0001ms, 0615ms total)
T0DB0 000:695 JLINK_GetHWStatus(...)  returns 0x00 (0001ms, 0616ms total)
T0DB0 000:696 JLINK_GetNumBPUnits(Type = 0xFFFFFF00)  returns 0x06 (0000ms, 0616ms total)
T0DB0 000:696 JLINK_GetNumBPUnits(Type = 0xF0)  returns 0x2000 (0000ms, 0616ms total)
T0DB0 000:696 JLINK_GetNumWPUnits()  returns 0x04 (0000ms, 0616ms total)
T0DB0 000:696 JLINK_GetSpeed()  returns 0xFA0 (0000ms, 0616ms total)
T0DB0 000:696 JLINK_ReadMemU32(0xE000E004, 0x0001 Items, ...) -- CPU_ReadMem(4 bytes @ 0xE000E004) - Data: 01 00 00 00  returns 0x01 (0000ms, 0616ms total)
T0DB0 000:696 JLINK_ReadMemU32(0xE000E004, 0x0001 Items, ...) -- CPU_ReadMem(4 bytes @ 0xE000E004) - Data: 01 00 00 00  returns 0x01 (0001ms, 0617ms total)
T0DB0 000:697 JLINK_WriteMem(0xE0001000, 0x001C Bytes, ...) - Data: 01 00 00 00 00 00 00 00 00 00 00 00 00 00 00 00 ... -- CPU_WriteMem(28 bytes @ 0xE0001000)  returns 0x1C (0001ms, 0618ms total)
T0DB0 000:698 JLINK_ReadMem (0xE0001000, 0x001C Bytes, ...) -- CPU_ReadMem(28 bytes @ 0xE0001000) - Data: 01 00 00 40 00 00 00 00 00 00 00 00 00 00 00 00 ...  returns 0x00 (0001ms, 0619ms total)
T0DB0 000:699 JLINK_ReadReg(R15 (PC))  returns 0x08000100 (0000ms, 0619ms total)
T0DB0 000:699 JLINK_ReadReg(XPSR)  returns 0x01000000 (0000ms, 0619ms total)
T0DB0 000:830 JLINK_SetResetType(JLINKARM_RESET_TYPE_NORMAL)  returns JLINKARM_RESET_TYPE_NORMAL (0000ms, 0619ms total)
T0DB0 000:830 JLINK_Reset() -- CPU_WriteMem(4 bytes @ 0xE0002000) -- CPU_ReadMem(4 bytes @ 0xE000EDFC) -- CPU_WriteMem(4 bytes @ 0xE000EDFC) -- CPU_ReadMem(4 bytes @ 0xE0001000) (0015ms, 0634ms total)
T0DB0 000:845 JLINK_ReadReg(R15 (PC))  returns 0x08000100 (0000ms, 0634ms total)
T0DB0 000:845 JLINK_ReadReg(XPSR)  returns 0x01000000 (0000ms, 0634ms total)
T0DB0 000:846 JLINK_ReadMem (0x08000100, 0x003C Bytes, ...) -- CPU_ReadMem(64 bytes @ 0x08000100) -- Updating C cache (64 bytes @ 0x08000100) -- Read from C cache (60 bytes @ 0x08000100) - Data: 06 48 80 47 06 48 00 47 FE E7 FE E7 FE E7 FE E7 ...  returns 0x00 (0002ms, 0636ms total)
T0DB0 002:030 JLINK_ReadMem (0x20000000, 0x0010 Bytes, ...) -- CPU_ReadMem(64 bytes @ 0x20000000) -- Updating C cache (64 bytes @ 0x20000000) -- Read from C cache (16 bytes @ 0x20000000) - Data: 73 74 6D 33 32 5F 64 65 6D 6F 20 74 65 73 74 00  returns 0x00 (0002ms, 0638ms total)
T0DB0 002:033 JLINK_ReadMem (0x200004C4, 0x0020 Bytes, ...) -- CPU_ReadMem(64 bytes @ 0x200004C0) -- Updating C cache (64 bytes @ 0x200004C0) -- Read from C cache (32 bytes @ 0x200004C4) - Data: 00 00 00 00 00 00 00 00 00 00 00 00 00 00 00 00 ...  returns 0x00 (0001ms, 0639ms total)
T0F54 002:062 JLINK_SetBPEx(Addr = 0x08002ED4, Type = 0xFFFFFFF2)  returns 0x00000001 (0000ms, 0639ms total)
T0F54 002:062 JLINK_SetBPEx(Addr = 0x08002F20, Type = 0xFFFFFFF2)  returns 0x00000002 (0000ms, 0639ms total)
T0F54 002:062 JLINK_SetBPEx(Addr = 0x08001612, Type = 0xFFFFFFF2)  returns 0x00000003 (0000ms, 0639ms total)
T0F54 002:062 JLINK_Go() -- CPU_WriteMem(4 bytes @ 0xE0002000) -- CPU_WriteMem(4 bytes @ 0xE0002000) -- CPU_WriteMem(4 bytes @ 0xE0002000) -- CPU_ReadMem(4 bytes @ 0xE0001000) -- CPU_WriteMem(4 bytes @ 0xE0002008) -- CPU_WriteMem(4 bytes @ 0xE000200C) -- CPU_WriteMem(4 bytes @ 0xE0002010) -- CPU_WriteMem(4 bytes @ 0xE0002014) -- CPU_WriteMem(4 bytes @ 0xE0002018) -- CPU_WriteMem(4 bytes @ 0xE000201C) -- CPU_WriteMem(4 bytes @ 0xE0001004) (0007ms, 0646ms total)
T0F54 002:170 JLINK_IsHalted()  returns TRUE (0003ms, 0649ms total)
T0F54 002:173 JLINK_Halt()  returns 0x00 (0000ms, 0646ms total)
T0F54 002:173 JLINK_IsHalted()  returns TRUE (0000ms, 0646ms total)
T0F54 002:173 JLINK_IsHalted()  returns TRUE (0000ms, 0646ms total)
T0F54 002:173 JLINK_IsHalted()  returns TRUE (0000ms, 0646ms total)
T0F54 002:173 JLINK_ReadReg(R15 (PC))  returns 0x08002ED4 (0000ms, 0646ms total)
T0F54 002:173 JLINK_ReadReg(XPSR)  returns 0x61000000 (0000ms, 0646ms total)
T0F54 002:173 JLINK_ClrBPEx(BPHandle = 0x00000001)  returns 0x00 (0000ms, 0646ms total)
T0F54 002:173 JLINK_ClrBPEx(BPHandle = 0x00000002)  returns 0x00 (0000ms, 0646ms total)
T0F54 002:173 JLINK_ClrBPEx(BPHandle = 0x00000003)  returns 0x00 (0000ms, 0646ms total)
T0F54 002:173 JLINK_ReadMemU32(0xE000ED30, 0x0001 Items, ...) -- CPU_ReadMem(4 bytes @ 0xE000ED30) - Data: 03 00 00 00  returns 0x01 (0001ms, 0647ms total)
T0F54 002:174 JLINK_ReadMemU32(0xE0001028, 0x0001 Items, ...) -- CPU_ReadMem(4 bytes @ 0xE0001028) - Data: 00 00 00 00  returns 0x01 (0000ms, 0647ms total)
T0F54 002:174 JLINK_ReadMemU32(0xE0001038, 0x0001 Items, ...) -- CPU_ReadMem(4 bytes @ 0xE0001038) - Data: 00 02 00 00  returns 0x01 (0001ms, 0648ms total)
T0F54 002:175 JLINK_ReadMemU32(0xE0001048, 0x0001 Items, ...) -- CPU_ReadMem(4 bytes @ 0xE0001048) - Data: 00 00 00 00  returns 0x01 (0000ms, 0648ms total)
T0F54 002:175 JLINK_ReadMemU32(0xE0001058, 0x0001 Items, ...) -- CPU_ReadMem(4 bytes @ 0xE0001058) - Data: 00 00 00 00  returns 0x01 (0001ms, 0649ms total)
T0F54 002:176 JLINK_ReadReg(R0)  returns 0x08002ED5 (0000ms, 0649ms total)
T0F54 002:176 JLINK_ReadReg(R1)  returns 0x20000B58 (0000ms, 0649ms total)
T0F54 002:176 JLINK_ReadReg(R2)  returns 0x00000000 (0000ms, 0649ms total)
T0F54 002:176 JLINK_ReadReg(R3)  returns 0x0800162D (0000ms, 0649ms total)
T0F54 002:176 JLINK_ReadReg(R4)  returns 0x080033C0 (0000ms, 0649ms total)
T0F54 002:176 JLINK_ReadReg(R5)  returns 0x080033C0 (0000ms, 0649ms total)
T0F54 002:176 JLINK_ReadReg(R6)  returns 0x000000FE (0000ms, 0649ms total)
T0F54 002:176 JLINK_ReadReg(R7)  returns 0x200002C4 (0000ms, 0649ms total)
T0F54 002:176 JLINK_ReadReg(R8)  returns 0x200002C4 (0000ms, 0649ms total)
T0F54 002:176 JLINK_ReadReg(R9)  returns 0x20000160 (0000ms, 0649ms total)
T0F54 002:176 JLINK_ReadReg(R10)  returns 0x00000000 (0000ms, 0649ms total)
T0F54 002:176 JLINK_ReadReg(R11)  returns 0x00000000 (0000ms, 0649ms total)
T0F54 002:176 JLINK_ReadReg(R12)  returns 0x000000E0 (0000ms, 0649ms total)
T0F54 002:176 JLINK_ReadReg(R13 (SP))  returns 0x20000B58 (0000ms, 0649ms total)
T0F54 002:176 JLINK_ReadReg(R14)  returns 0x0800016D (0000ms, 0649ms total)
T0F54 002:176 JLINK_ReadReg(R15 (PC))  returns 0x08002ED4 (0000ms, 0649ms total)
T0F54 002:176 JLINK_ReadReg(XPSR)  returns 0x61000000 (0000ms, 0649ms total)
T0F54 002:176 JLINK_ReadReg(MSP)  returns 0x20000B58 (0000ms, 0649ms total)
T0F54 002:176 JLINK_ReadReg(PSP)  returns 0x20001000 (0000ms, 0649ms total)
T0F54 002:176 JLINK_ReadReg(CFBP)  returns 0x00000000 (0000ms, 0649ms total)
T0DB0 002:177 JLINK_ReadMem (0x20000B50, 0x0004 Bytes, ...) -- CPU_ReadMem(64 bytes @ 0x20000B40) -- Updating C cache (64 bytes @ 0x20000B40) -- Read from C cache (4 bytes @ 0x20000B50) - Data: 00 00 00 00  returns 0x00 (0001ms, 0650ms total)
T0DB0 002:178 JLINK_ReadMem (0x00000000, 0x0001 Bytes, ...) -- CPU_ReadMem(4 bytes @ 0x00000004) -- CPU_ReadMem(64 bytes @ 0x08000000) -- Updating C cache (64 bytes @ 0x08000000) -- Read from C cache (1 bytes @ 0x08000000) - Data: 58  returns 0x00 (0002ms, 0652ms total)
T0DB0 002:181 JLINK_ReadMemU32(0xE0001004, 0x0001 Items, ...) -- CPU_ReadMem(4 bytes @ 0xE0001004) - Data: 57 94 00 00  returns 0x01 (0001ms, 0653ms total)
T0DB0 002:183 JLINK_ReadMem (0x20000000, 0x0010 Bytes, ...) -- CPU_ReadMem(64 bytes @ 0x20000000) -- Updating C cache (64 bytes @ 0x20000000) -- Read from C cache (16 bytes @ 0x20000000) - Data: 73 74 6D 33 32 5F 64 65 6D 6F 20 74 65 73 74 00  returns 0x00 (0001ms, 0654ms total)
T0DB0 002:184 JLINK_ReadMem (0x200004C4, 0x0020 Bytes, ...) -- CPU_ReadMem(64 bytes @ 0x200004C0) -- Updating C cache (64 bytes @ 0x200004C0) -- Read from C cache (32 bytes @ 0x200004C4) - Data: 00 00 00 00 00 00 00 00 00 00 00 00 00 00 00 00 ...  returns 0x00 (0001ms, 0655ms total)
T0DB0 003:655 JLINK_SetResetType(JLINKARM_RESET_TYPE_NORMAL)  returns JLINKARM_RESET_TYPE_NORMAL (0000ms, 0655ms total)
T0DB0 003:655 JLINK_Reset() -- CPU_WriteMem(4 bytes @ 0xE0002000) -- CPU_ReadMem(4 bytes @ 0xE000EDFC) -- CPU_WriteMem(4 bytes @ 0xE000EDFC) -- CPU_ReadMem(4 bytes @ 0xE0001000) (0014ms, 0669ms total)
T0DB0 003:669 JLINK_ReadReg(R15 (PC))  returns 0x08000100 (0000ms, 0669ms total)
T0DB0 003:669 JLINK_ReadReg(XPSR)  returns 0x01000000 (0000ms, 0669ms total)
T0DB0 003:669 JLINK_ReadMemU32(0xE0001004, 0x0001 Items, ...) -- CPU_ReadMem(4 bytes @ 0xE0001004) - Data: 57 94 00 00  returns 0x01 (0001ms, 0670ms total)
T0DB0 003:673 JLINK_ReadMem (0x08000100, 0x003C Bytes, ...) -- CPU_ReadMem(64 bytes @ 0x08000100) -- Updating C cache (64 bytes @ 0x08000100) -- Read from C cache (60 bytes @ 0x08000100) - Data: 06 48 80 47 06 48 00 47 FE E7 FE E7 FE E7 FE E7 ...  returns 0x00 (0001ms, 0671ms total)
T0DB0 003:734 JLINK_ReadMem (0x20000000, 0x0010 Bytes, ...) -- CPU_ReadMem(64 bytes @ 0x20000000) -- Updating C cache (64 bytes @ 0x20000000) -- Read from C cache (16 bytes @ 0x20000000) - Data: 73 74 6D 33 32 5F 64 65 6D 6F 20 74 65 73 74 00  returns 0x00 (0001ms, 0672ms total)
T0DB0 003:735 JLINK_ReadMem (0x200004C4, 0x0020 Bytes, ...) -- CPU_ReadMem(64 bytes @ 0x200004C0) -- Updating C cache (64 bytes @ 0x200004C0) -- Read from C cache (32 bytes @ 0x200004C4) - Data: 00 00 00 00 00 00 00 00 00 00 00 00 00 00 00 00 ...  returns 0x00 (0001ms, 0673ms total)
T0DB0 003:736 JLINK_ReadMem (0x20000B50, 0x0004 Bytes, ...) -- CPU_ReadMem(64 bytes @ 0x20000B40) -- Updating C cache (64 bytes @ 0x20000B40) -- Read from C cache (4 bytes @ 0x20000B50) - Data: 00 00 00 00  returns 0x00 (0002ms, 0675ms total)
T0F54 004:446 JLINK_SetBPEx(Addr = 0x08002F20, Type = 0xFFFFFFF2)  returns 0x00000004 (0000ms, 0675ms total)
T0F54 004:446 JLINK_SetBPEx(Addr = 0x08001612, Type = 0xFFFFFFF2)  returns 0x00000005 (0000ms, 0675ms total)
T0F54 004:446 JLINK_Go() -- CPU_WriteMem(4 bytes @ 0xE0002000) -- CPU_WriteMem(4 bytes @ 0xE0002000) -- CPU_ReadMem(4 bytes @ 0xE0001000) -- CPU_WriteMem(4 bytes @ 0xE0002008) -- CPU_WriteMem(4 bytes @ 0xE000200C) -- CPU_WriteMem(4 bytes @ 0xE0002010) -- CPU_WriteMem(4 bytes @ 0xE0002014) -- CPU_WriteMem(4 bytes @ 0xE0002018) -- CPU_WriteMem(4 bytes @ 0xE000201C) -- CPU_WriteMem(4 bytes @ 0xE0001004) (0006ms, 0681ms total)
T0F54 004:553 JLINK_IsHalted()  returns FALSE (0000ms, 0681ms total)
T0F54 004:654 JLINK_IsHalted()  returns FALSE (0000ms, 0681ms total)
T0F54 004:755 JLINK_IsHalted()  returns FALSE (0001ms, 0682ms total)
T0F54 004:857 JLINK_IsHalted()  returns FALSE (0000ms, 0681ms total)
T0F54 004:958 JLINK_IsHalted()  returns TRUE (0004ms, 0685ms total)
T0F54 004:962 JLINK_Halt()  returns 0x00 (0000ms, 0681ms total)
T0F54 004:962 JLINK_IsHalted()  returns TRUE (0000ms, 0681ms total)
T0F54 004:962 JLINK_IsHalted()  returns TRUE (0000ms, 0681ms total)
T0F54 004:962 JLINK_IsHalted()  returns TRUE (0000ms, 0681ms total)
T0F54 004:962 JLINK_ReadReg(R15 (PC))  returns 0x08002F20 (0000ms, 0681ms total)
T0F54 004:962 JLINK_ReadReg(XPSR)  returns 0x61000000 (0000ms, 0681ms total)
T0F54 004:963 JLINK_ClrBPEx(BPHandle = 0x00000004)  returns 0x00 (0000ms, 0681ms total)
T0F54 004:963 JLINK_ClrBPEx(BPHandle = 0x00000005)  returns 0x00 (0000ms, 0681ms total)
T0F54 004:963 JLINK_ReadMemU32(0xE000ED30, 0x0001 Items, ...) -- CPU_ReadMem(4 bytes @ 0xE000ED30) - Data: 03 00 00 00  returns 0x01 (0001ms, 0682ms total)
T0F54 004:964 JLINK_ReadMemU32(0xE0001028, 0x0001 Items, ...) -- CPU_ReadMem(4 bytes @ 0xE0001028) - Data: 00 00 00 00  returns 0x01 (0001ms, 0683ms total)
T0F54 004:965 JLINK_ReadMemU32(0xE0001038, 0x0001 Items, ...) -- CPU_ReadMem(4 bytes @ 0xE0001038) - Data: 00 02 00 00  returns 0x01 (0001ms, 0684ms total)
T0F54 004:966 JLINK_ReadMemU32(0xE0001048, 0x0001 Items, ...) -- CPU_ReadMem(4 bytes @ 0xE0001048) - Data: 00 00 00 00  returns 0x01 (0001ms, 0685ms total)
T0F54 004:967 JLINK_ReadMemU32(0xE0001058, 0x0001 Items, ...) -- CPU_ReadMem(4 bytes @ 0xE0001058) - Data: 00 00 00 00  returns 0x01 (0001ms, 0686ms total)
T0F54 004:968 JLINK_ReadReg(R0)  returns 0x00000000 (0000ms, 0686ms total)
T0F54 004:968 JLINK_ReadReg(R1)  returns 0x00000000 (0001ms, 0687ms total)
T0F54 004:969 JLINK_ReadReg(R2)  returns 0x00000000 (0000ms, 0687ms total)
T0F54 004:969 JLINK_ReadReg(R3)  returns 0x200002D4 (0000ms, 0687ms total)
T0F54 004:969 JLINK_ReadReg(R4)  returns 0x00000000 (0000ms, 0687ms total)
T0F54 004:969 JLINK_ReadReg(R5)  returns 0x00000000 (0000ms, 0687ms total)
T0F54 004:969 JLINK_ReadReg(R6)  returns 0x000000FE (0000ms, 0687ms total)
T0F54 004:969 JLINK_ReadReg(R7)  returns 0x200002C4 (0000ms, 0687ms total)
T0F54 004:969 JLINK_ReadReg(R8)  returns 0x200002C4 (0000ms, 0687ms total)
T0F54 004:969 JLINK_ReadReg(R9)  returns 0x20000160 (0000ms, 0687ms total)
T0F54 004:969 JLINK_ReadReg(R10)  returns 0x00000000 (0000ms, 0687ms total)
T0F54 004:969 JLINK_ReadReg(R11)  returns 0x00000000 (0000ms, 0687ms total)
T0F54 004:969 JLINK_ReadReg(R12)  returns 0x000000E0 (0000ms, 0687ms total)
T0F54 004:969 JLINK_ReadReg(R13 (SP))  returns 0x20000B50 (0000ms, 0687ms total)
T0F54 004:969 JLINK_ReadReg(R14)  returns 0x08002893 (0000ms, 0687ms total)
T0F54 004:969 JLINK_ReadReg(R15 (PC))  returns 0x08002F20 (0000ms, 0687ms total)
T0F54 004:969 JLINK_ReadReg(XPSR)  returns 0x61000000 (0001ms, 0688ms total)
T0F54 004:970 JLINK_ReadReg(MSP)  returns 0x20000B50 (0000ms, 0688ms total)
T0F54 004:970 JLINK_ReadReg(PSP)  returns 0x20001000 (0000ms, 0688ms total)
T0F54 004:970 JLINK_ReadReg(CFBP)  returns 0x00000000 (0000ms, 0688ms total)
T0DB0 004:970 JLINK_ReadMem (0x20000B54, 0x0004 Bytes, ...) -- CPU_ReadMem(64 bytes @ 0x20000B40) -- Updating C cache (64 bytes @ 0x20000B40) -- Read from C cache (4 bytes @ 0x20000B54) - Data: 6D 01 00 08  returns 0x00 (0001ms, 0689ms total)
T0DB0 004:972 JLINK_ReadMem (0x20000B50, 0x0004 Bytes, ...) -- Read from C cache (4 bytes @ 0x20000B50) - Data: 10 00 00 00  returns 0x00 (0000ms, 0690ms total)
T0DB0 004:974 JLINK_ReadMemU32(0xE0001004, 0x0001 Items, ...) -- CPU_ReadMem(4 bytes @ 0xE0001004) - Data: A8 A0 34 00  returns 0x01 (0001ms, 0691ms total)
T0DB0 004:975 JLINK_ReadMem (0x20000000, 0x0010 Bytes, ...) -- CPU_ReadMem(64 bytes @ 0x20000000) -- Updating C cache (64 bytes @ 0x20000000) -- Read from C cache (16 bytes @ 0x20000000) - Data: 73 74 6D 33 32 5F 64 65 6D 6F 20 74 65 73 74 00  returns 0x00 (0002ms, 0693ms total)
T0DB0 004:977 JLINK_ReadMem (0x200004C4, 0x0020 Bytes, ...) -- CPU_ReadMem(64 bytes @ 0x200004C0) -- Updating C cache (64 bytes @ 0x200004C0) -- Read from C cache (32 bytes @ 0x200004C4) - Data: 00 00 00 00 00 00 00 00 00 00 00 00 00 00 00 00 ...  returns 0x00 (0001ms, 0694ms total)
T0DB0 004:984 JLINK_ReadMem (0x08002F20, 0x003C Bytes, ...) -- CPU_ReadMem(128 bytes @ 0x08002F00) -- Updating C cache (128 bytes @ 0x08002F00) -- Read from C cache (60 bytes @ 0x08002F20) - Data: 22 48 FF F7 9B FB 60 1C C4 B2 0A 2C F1 DB 00 BF ...  returns 0x00 (0002ms, 0696ms total)
T0F54 010:286 JLINK_SetBPEx(Addr = 0x08001612, Type = 0xFFFFFFF2)  returns 0x00000006 (0000ms, 0696ms total)
T0F54 010:286 JLINK_SetBPEx(Addr = 0x08002F40, Type = 0xFFFFFFF2)  returns 0x00000007 (0000ms, 0696ms total)
T0F54 010:286 JLINK_Go() -- CPU_WriteMem(4 bytes @ 0xE0002000) -- CPU_WriteMem(4 bytes @ 0xE0002000) -- CPU_ReadMem(4 bytes @ 0xE0001000) -- CPU_WriteMem(4 bytes @ 0xE0002008) -- CPU_WriteMem(4 bytes @ 0xE000200C) (0005ms, 0701ms total)
T0F54 010:391 JLINK_IsHalted()  returns FALSE (0001ms, 0702ms total)
T0F54 010:493 JLINK_IsHalted()  returns FALSE (0000ms, 0701ms total)
T0F54 010:594 JLINK_IsHalted()  returns FALSE (0000ms, 0701ms total)
T0F54 010:695 JLINK_IsHalted()  returns FALSE (0001ms, 0702ms total)
T0F54 010:796 JLINK_IsHalted()  returns FALSE (0001ms, 0702ms total)
T0F54 010:898 JLINK_IsHalted()  returns FALSE (0001ms, 0702ms total)
T0F54 011:000 JLINK_IsHalted()  returns FALSE (0001ms, 0702ms total)
T0F54 011:102 JLINK_IsHalted()  returns FALSE (0000ms, 0701ms total)
T0F54 011:203 JLINK_IsHalted()  returns FALSE (0000ms, 0701ms total)
T0F54 011:304 JLINK_IsHalted()  returns FALSE (0001ms, 0702ms total)
T0F54 011:407 JLINK_IsHalted()  returns FALSE (0000ms, 0701ms total)
T0F54 011:508 JLINK_IsHalted()  returns FALSE (0000ms, 0701ms total)
T0F54 011:609 JLINK_IsHalted()  returns FALSE (0000ms, 0701ms total)
T0F54 011:710 JLINK_IsHalted()  returns FALSE (0000ms, 0701ms total)
T0F54 011:811 JLINK_IsHalted()  returns FALSE (0000ms, 0701ms total)
T0F54 011:912 JLINK_IsHalted()  returns FALSE (0001ms, 0702ms total)
T0F54 012:014 JLINK_IsHalted()  returns FALSE (0000ms, 0701ms total)
T0F54 012:115 JLINK_IsHalted()  returns FALSE (0001ms, 0702ms total)
T0F54 012:217 JLINK_IsHalted()  returns FALSE (0001ms, 0702ms total)
T0F54 012:318 JLINK_IsHalted()  returns FALSE (0001ms, 0702ms total)
T0F54 012:420 JLINK_IsHalted()  returns FALSE (0000ms, 0701ms total)
T0F54 012:521 JLINK_IsHalted()  returns FALSE (0001ms, 0702ms total)
T0F54 012:622 JLINK_IsHalted()  returns FALSE (0001ms, 0702ms total)
T0F54 012:724 JLINK_IsHalted()  returns FALSE (0001ms, 0702ms total)
T0F54 012:826 JLINK_IsHalted()  returns FALSE (0001ms, 0702ms total)
T0F54 012:929 JLINK_IsHalted()  returns FALSE (0001ms, 0702ms total)
T0F54 013:031 JLINK_IsHalted()  returns FALSE (0001ms, 0702ms total)
T0F54 013:133 JLINK_IsHalted()  returns FALSE (0001ms, 0702ms total)
T0F54 013:235 JLINK_IsHalted()  returns FALSE (0001ms, 0702ms total)
T0F54 013:337 JLINK_IsHalted()  returns FALSE (0001ms, 0702ms total)
T0F54 013:439 JLINK_IsHalted()  returns TRUE (0004ms, 0705ms total)
T0F54 013:443 JLINK_Halt()  returns 0x00 (0000ms, 0701ms total)
T0F54 013:443 JLINK_IsHalted()  returns TRUE (0001ms, 0702ms total)
T0F54 013:444 JLINK_IsHalted()  returns TRUE (0000ms, 0701ms total)
T0F54 013:444 JLINK_IsHalted()  returns TRUE (0000ms, 0701ms total)
T0F54 013:444 JLINK_ReadReg(R15 (PC))  returns 0x08002F40 (0000ms, 0701ms total)
T0F54 013:444 JLINK_ReadReg(XPSR)  returns 0x61000000 (0000ms, 0701ms total)
T0F54 013:444 JLINK_ClrBPEx(BPHandle = 0x00000006)  returns 0x00 (0000ms, 0701ms total)
T0F54 013:444 JLINK_ClrBPEx(BPHandle = 0x00000007)  returns 0x00 (0000ms, 0701ms total)
T0F54 013:444 JLINK_ReadMemU32(0xE000ED30, 0x0001 Items, ...) -- CPU_ReadMem(4 bytes @ 0xE000ED30) - Data: 03 00 00 00  returns 0x01 (0001ms, 0702ms total)
T0F54 013:445 JLINK_ReadMemU32(0xE0001028, 0x0001 Items, ...) -- CPU_ReadMem(4 bytes @ 0xE0001028) - Data: 00 00 00 00  returns 0x01 (0001ms, 0703ms total)
T0F54 013:446 JLINK_ReadMemU32(0xE0001038, 0x0001 Items, ...) -- CPU_ReadMem(4 bytes @ 0xE0001038) - Data: 00 02 00 00  returns 0x01 (0001ms, 0704ms total)
T0F54 013:447 JLINK_ReadMemU32(0xE0001048, 0x0001 Items, ...) -- CPU_ReadMem(4 bytes @ 0xE0001048) - Data: 00 00 00 00  returns 0x01 (0002ms, 0706ms total)
T0F54 013:449 JLINK_ReadMemU32(0xE0001058, 0x0001 Items, ...) -- CPU_ReadMem(4 bytes @ 0xE0001058) - Data: 00 00 00 00  returns 0x01 (0000ms, 0706ms total)
T0F54 013:450 JLINK_ReadReg(R0)  returns 0x00000003 (0000ms, 0707ms total)
T0F54 013:450 JLINK_ReadReg(R1)  returns 0x00000727 (0000ms, 0707ms total)
T0F54 013:450 JLINK_ReadReg(R2)  returns 0x00000001 (0000ms, 0707ms total)
T0F54 013:450 JLINK_ReadReg(R3)  returns 0x40013800 (0000ms, 0707ms total)
T0F54 013:450 JLINK_ReadReg(R4)  returns 0x0000000A (0000ms, 0707ms total)
T0F54 013:450 JLINK_ReadReg(R5)  returns 0x00000000 (0000ms, 0707ms total)
T0F54 013:450 JLINK_ReadReg(R6)  returns 0x000000FE (0000ms, 0707ms total)
T0F54 013:450 JLINK_ReadReg(R7)  returns 0x200002C4 (0000ms, 0707ms total)
T0F54 013:450 JLINK_ReadReg(R8)  returns 0x200002C4 (0000ms, 0707ms total)
T0F54 013:450 JLINK_ReadReg(R9)  returns 0x20000160 (0000ms, 0707ms total)
T0F54 013:450 JLINK_ReadReg(R10)  returns 0x00000000 (0000ms, 0707ms total)
T0F54 013:450 JLINK_ReadReg(R11)  returns 0x00000000 (0000ms, 0707ms total)
T0F54 013:450 JLINK_ReadReg(R12)  returns 0x000000E0 (0001ms, 0708ms total)
T0F54 013:451 JLINK_ReadReg(R13 (SP))  returns 0x20000B50 (0000ms, 0708ms total)
T0F54 013:451 JLINK_ReadReg(R14)  returns 0x08000F9F (0000ms, 0708ms total)
T0F54 013:451 JLINK_ReadReg(R15 (PC))  returns 0x08002F40 (0000ms, 0708ms total)
T0F54 013:451 JLINK_ReadReg(XPSR)  returns 0x61000000 (0000ms, 0708ms total)
T0F54 013:451 JLINK_ReadReg(MSP)  returns 0x20000B50 (0000ms, 0708ms total)
T0F54 013:451 JLINK_ReadReg(PSP)  returns 0x20001000 (0000ms, 0708ms total)
T0F54 013:451 JLINK_ReadReg(CFBP)  returns 0x00000000 (0000ms, 0708ms total)
T0DB0 013:453 JLINK_ReadMem (0x20000B54, 0x0004 Bytes, ...) -- CPU_ReadMem(64 bytes @ 0x20000B40) -- Updating C cache (64 bytes @ 0x20000B40) -- Read from C cache (4 bytes @ 0x20000B54) - Data: 6D 01 00 08  returns 0x00 (0002ms, 0710ms total)
T0DB0 013:455 JLINK_ReadMem (0x20000B50, 0x0004 Bytes, ...) -- Read from C cache (4 bytes @ 0x20000B50) - Data: 10 00 00 00  returns 0x00 (0000ms, 0710ms total)
T0DB0 013:455 JLINK_ReadMemU32(0xE0001004, 0x0001 Items, ...) -- CPU_ReadMem(4 bytes @ 0xE0001004) - Data: F9 C7 B3 01  returns 0x01 (0001ms, 0711ms total)
T0DB0 013:456 JLINK_ReadMem (0x20000000, 0x0010 Bytes, ...) -- CPU_ReadMem(64 bytes @ 0x20000000) -- Updating C cache (64 bytes @ 0x20000000) -- Read from C cache (16 bytes @ 0x20000000) - Data: 73 74 6D 33 32 5F 64 65 6D 6F 20 74 65 73 74 00  returns 0x00 (0002ms, 0713ms total)
T0DB0 013:458 JLINK_ReadMem (0x200004C4, 0x0020 Bytes, ...) -- CPU_ReadMem(64 bytes @ 0x200004C0) -- Updating C cache (64 bytes @ 0x200004C0) -- Read from C cache (32 bytes @ 0x200004C4) - Data: 00 00 00 00 00 00 00 00 00 00 00 00 00 00 00 00 ...  returns 0x00 (0001ms, 0714ms total)
T0DB0 013:465 JLINK_ReadMem (0x08002F40, 0x003C Bytes, ...) -- CPU_ReadMem(64 bytes @ 0x08002F40) -- Updating C cache (64 bytes @ 0x08002F40) -- Read from C cache (60 bytes @ 0x08002F40) - Data: 00 21 1A 48 FF F7 B4 F8 00 24 11 E0 6B 46 10 22 ...  returns 0x00 (0001ms, 0715ms total)
T0F54 015:255 JLINK_Step() -- Read from C cache (2 bytes @ 0x08002F40) -- Simulated  returns 0x00 (0002ms, 0717ms total)
T0F54 015:257 JLINK_ReadReg(R15 (PC))  returns 0x08002F42 (0000ms, 0717ms total)
T0F54 015:257 JLINK_ReadReg(XPSR)  returns 0x61000000 (0000ms, 0717ms total)
T0F54 015:257 JLINK_Step() -- Read from C cache (2 bytes @ 0x08002F42) -- CPU_ReadMem(64 bytes @ 0x08002F80) -- Updating C cache (64 bytes @ 0x08002F80) -- Read from C cache (4 bytes @ 0x08002FAC) -- Simulated  returns 0x00 (0001ms, 0718ms total)
T0F54 015:258 JLINK_ReadReg(R15 (PC))  returns 0x08002F44 (0000ms, 0718ms total)
T0F54 015:258 JLINK_ReadReg(XPSR)  returns 0x61000000 (0000ms, 0718ms total)
T0F54 015:258 JLINK_SetBPEx(Addr = 0x08002F48, Type = 0xFFFFFFF2)  returns 0x00000008 (0000ms, 0718ms total)
T0F54 015:258 JLINK_SetBPEx(Addr = 0x08001612, Type = 0xFFFFFFF2)  returns 0x00000009 (0000ms, 0718ms total)
T0F54 015:258 JLINK_SetBPEx(Addr = 0x08002F40, Type = 0xFFFFFFF2)  returns 0x0000000A (0000ms, 0718ms total)
T0F54 015:258 JLINK_Go() -- CPU_WriteMem(4 bytes @ 0xE0002000) -- CPU_WriteMem(4 bytes @ 0xE0002000) -- CPU_WriteMem(4 bytes @ 0xE0002000) -- CPU_ReadMem(4 bytes @ 0xE0001000) -- CPU_WriteMem(4 bytes @ 0xE0002008) -- CPU_WriteMem(4 bytes @ 0xE000200C) -- CPU_WriteMem(4 bytes @ 0xE0002010) -- CPU_WriteMem(4 bytes @ 0xE0001004) (0006ms, 0724ms total)
T0F54 015:365 JLINK_IsHalted()  returns TRUE (0003ms, 0727ms total)
T0F54 015:369 JLINK_Halt()  returns 0x00 (0000ms, 0724ms total)
T0F54 015:369 JLINK_IsHalted()  returns TRUE (0000ms, 0724ms total)
T0F54 015:369 JLINK_IsHalted()  returns TRUE (0000ms, 0724ms total)
T0F54 015:369 JLINK_IsHalted()  returns TRUE (0000ms, 0724ms total)
T0F54 015:369 JLINK_ReadReg(R15 (PC))  returns 0x08002F48 (0000ms, 0724ms total)
T0F54 015:369 JLINK_ReadReg(XPSR)  returns 0x81000000 (0000ms, 0724ms total)
T0F54 015:369 JLINK_ClrBPEx(BPHandle = 0x00000008)  returns 0x00 (0000ms, 0724ms total)
T0F54 015:369 JLINK_ClrBPEx(BPHandle = 0x00000009)  returns 0x00 (0000ms, 0724ms total)
T0F54 015:369 JLINK_ClrBPEx(BPHandle = 0x0000000A)  returns 0x00 (0000ms, 0724ms total)
T0F54 015:369 JLINK_ReadMemU32(0xE000ED30, 0x0001 Items, ...) -- CPU_ReadMem(4 bytes @ 0xE000ED30) - Data: 03 00 00 00  returns 0x01 (0001ms, 0725ms total)
T0F54 015:370 JLINK_ReadMemU32(0xE0001028, 0x0001 Items, ...) -- CPU_ReadMem(4 bytes @ 0xE0001028) - Data: 00 00 00 00  returns 0x01 (0001ms, 0726ms total)
T0F54 015:371 JLINK_ReadMemU32(0xE0001038, 0x0001 Items, ...) -- CPU_ReadMem(4 bytes @ 0xE0001038) - Data: 00 02 00 00  returns 0x01 (0001ms, 0727ms total)
T0F54 015:372 JLINK_ReadMemU32(0xE0001048, 0x0001 Items, ...) -- CPU_ReadMem(4 bytes @ 0xE0001048) - Data: 00 00 00 00  returns 0x01 (0001ms, 0728ms total)
T0F54 015:373 JLINK_ReadMemU32(0xE0001058, 0x0001 Items, ...) -- CPU_ReadMem(4 bytes @ 0xE0001058) - Data: 00 00 00 00  returns 0x01 (0001ms, 0729ms total)
T0F54 015:375 JLINK_ReadReg(R0)  returns 0x00000000 (0000ms, 0729ms total)
T0F54 015:375 JLINK_ReadReg(R1)  returns 0x000000A0 (0000ms, 0729ms total)
T0F54 015:375 JLINK_ReadReg(R2)  returns 0x00000001 (0000ms, 0729ms total)
T0F54 015:375 JLINK_ReadReg(R3)  returns 0x20000068 (0000ms, 0729ms total)
T0F54 015:375 JLINK_ReadReg(R4)  returns 0x0000000A (0000ms, 0729ms total)
T0F54 015:375 JLINK_ReadReg(R5)  returns 0x00000000 (0000ms, 0729ms total)
T0F54 015:375 JLINK_ReadReg(R6)  returns 0x000000FE (0001ms, 0730ms total)
T0F54 015:376 JLINK_ReadReg(R7)  returns 0x200002C4 (0000ms, 0730ms total)
T0F54 015:376 JLINK_ReadReg(R8)  returns 0x200002C4 (0000ms, 0730ms total)
T0F54 015:376 JLINK_ReadReg(R9)  returns 0x20000160 (0000ms, 0730ms total)
T0F54 015:376 JLINK_ReadReg(R10)  returns 0x00000000 (0000ms, 0730ms total)
T0F54 015:376 JLINK_ReadReg(R11)  returns 0x00000000 (0000ms, 0730ms total)
T0F54 015:376 JLINK_ReadReg(R12)  returns 0x000000E0 (0000ms, 0730ms total)
T0F54 015:376 JLINK_ReadReg(R13 (SP))  returns 0x20000B50 (0000ms, 0730ms total)
T0F54 015:376 JLINK_ReadReg(R14)  returns 0x08000D79 (0000ms, 0730ms total)
T0F54 015:376 JLINK_ReadReg(R15 (PC))  returns 0x08002F48 (0000ms, 0730ms total)
T0F54 015:376 JLINK_ReadReg(XPSR)  returns 0x81000000 (0001ms, 0731ms total)
T0F54 015:377 JLINK_ReadReg(MSP)  returns 0x20000B50 (0000ms, 0731ms total)
T0F54 015:377 JLINK_ReadReg(PSP)  returns 0x20001000 (0000ms, 0731ms total)
T0F54 015:377 JLINK_ReadReg(CFBP)  returns 0x00000000 (0000ms, 0731ms total)
T0DB0 015:378 JLINK_ReadMem (0x20000B54, 0x0004 Bytes, ...) -- CPU_ReadMem(64 bytes @ 0x20000B40) -- Updating C cache (64 bytes @ 0x20000B40) -- Read from C cache (4 bytes @ 0x20000B54) - Data: 6D 01 00 08  returns 0x00 (0002ms, 0733ms total)
T0DB0 015:380 JLINK_ReadMem (0x20000B50, 0x0004 Bytes, ...) -- Read from C cache (4 bytes @ 0x20000B50) - Data: 10 00 00 00  returns 0x00 (0000ms, 0733ms total)
T0DB0 015:380 JLINK_ReadMemU32(0xE0001004, 0x0001 Items, ...) -- CPU_ReadMem(4 bytes @ 0xE0001004) - Data: 41 CA B3 01  returns 0x01 (0001ms, 0734ms total)
T0DB0 015:381 JLINK_ReadMem (0x20000000, 0x0010 Bytes, ...) -- CPU_ReadMem(64 bytes @ 0x20000000) -- Updating C cache (64 bytes @ 0x20000000) -- Read from C cache (16 bytes @ 0x20000000) - Data: 73 74 6D 33 32 5F 64 65 6D 6F 20 74 65 73 74 00  returns 0x00 (0002ms, 0736ms total)
T0DB0 015:383 JLINK_ReadMem (0x200004C4, 0x0020 Bytes, ...) -- CPU_ReadMem(64 bytes @ 0x200004C0) -- Updating C cache (64 bytes @ 0x200004C0) -- Read from C cache (32 bytes @ 0x200004C4) - Data: 00 00 00 00 00 00 00 00 00 00 00 00 00 00 00 00 ...  returns 0x00 (0002ms, 0738ms total)
T0DB0 015:392 JLINK_ReadMem (0x08002F48, 0x003C Bytes, ...) -- CPU_ReadMem(128 bytes @ 0x08002F40) -- Updating C cache (128 bytes @ 0x08002F40) -- Read from C cache (60 bytes @ 0x08002F48) - Data: 00 24 11 E0 6B 46 10 22 1B 49 16 48 FF F7 B4 FA ...  returns 0x00 (0002ms, 0740ms total)
T0F54 016:736 JLINK_Step() -- Read from C cache (2 bytes @ 0x08002F48) -- Simulated  returns 0x00 (0001ms, 0741ms total)
T0F54 016:737 JLINK_ReadReg(R15 (PC))  returns 0x08002F4A (0000ms, 0741ms total)
T0F54 016:737 JLINK_ReadReg(XPSR)  returns 0x41000000 (0000ms, 0741ms total)
T0F54 016:737 JLINK_Step() -- Read from C cache (2 bytes @ 0x08002F4A) -- Simulated  returns 0x00 (0000ms, 0741ms total)
T0F54 016:737 JLINK_ReadReg(R15 (PC))  returns 0x08002F70 (0000ms, 0741ms total)
T0F54 016:737 JLINK_ReadReg(XPSR)  returns 0x41000000 (0000ms, 0741ms total)
T0F54 016:737 JLINK_Step() -- Read from C cache (2 bytes @ 0x08002F70) -- Simulated  returns 0x00 (0000ms, 0741ms total)
T0F54 016:737 JLINK_ReadReg(R15 (PC))  returns 0x08002F72 (0000ms, 0741ms total)
T0F54 016:737 JLINK_ReadReg(XPSR)  returns 0x81000000 (0000ms, 0741ms total)
T0F54 016:737 JLINK_Step() -- Read from C cache (2 bytes @ 0x08002F72) -- Simulated  returns 0x00 (0000ms, 0741ms total)
T0F54 016:737 JLINK_ReadReg(R15 (PC))  returns 0x08002F4C (0000ms, 0741ms total)
T0F54 016:737 JLINK_ReadReg(XPSR)  returns 0x81000000 (0000ms, 0741ms total)
T0F54 016:737 JLINK_ReadReg(R0)  returns 0x00000000 (0000ms, 0741ms total)
T0F54 016:738 JLINK_ReadReg(R1)  returns 0x000000A0 (0000ms, 0741ms total)
T0F54 016:738 JLINK_ReadReg(R2)  returns 0x00000001 (0000ms, 0741ms total)
T0F54 016:738 JLINK_ReadReg(R3)  returns 0x20000068 (0000ms, 0741ms total)
T0F54 016:738 JLINK_ReadReg(R4)  returns 0x00000000 (0000ms, 0741ms total)
T0F54 016:738 JLINK_ReadReg(R5)  returns 0x00000000 (0000ms, 0741ms total)
T0F54 016:738 JLINK_ReadReg(R6)  returns 0x000000FE (0000ms, 0741ms total)
T0F54 016:738 JLINK_ReadReg(R7)  returns 0x200002C4 (0000ms, 0741ms total)
T0F54 016:738 JLINK_ReadReg(R8)  returns 0x200002C4 (0000ms, 0741ms total)
T0F54 016:738 JLINK_ReadReg(R9)  returns 0x20000160 (0000ms, 0741ms total)
T0F54 016:738 JLINK_ReadReg(R10)  returns 0x00000000 (0000ms, 0741ms total)
T0F54 016:738 JLINK_ReadReg(R11)  returns 0x00000000 (0000ms, 0741ms total)
T0F54 016:738 JLINK_ReadReg(R12)  returns 0x000000E0 (0000ms, 0741ms total)
T0F54 016:738 JLINK_ReadReg(R13 (SP))  returns 0x20000B50 (0000ms, 0741ms total)
T0F54 016:738 JLINK_ReadReg(R14)  returns 0x08000D79 (0000ms, 0741ms total)
T0F54 016:738 JLINK_ReadReg(R15 (PC))  returns 0x08002F4C (0000ms, 0741ms total)
T0F54 016:738 JLINK_ReadReg(XPSR)  returns 0x81000000 (0000ms, 0741ms total)
T0F54 016:738 JLINK_ReadReg(MSP)  returns 0x20000B50 (0000ms, 0741ms total)
T0F54 016:738 JLINK_ReadReg(PSP)  returns 0x20001000 (0000ms, 0741ms total)
T0F54 016:738 JLINK_ReadReg(CFBP)  returns 0x00000000 (0000ms, 0741ms total)
T0DB0 016:739 JLINK_ReadMem (0x20000B54, 0x0004 Bytes, ...) -- Read from C cache (4 bytes @ 0x20000B54) - Data: 6D 01 00 08  returns 0x00 (0000ms, 0741ms total)
T0DB0 016:739 JLINK_ReadMem (0x20000B50, 0x0004 Bytes, ...) -- Read from C cache (4 bytes @ 0x20000B50) - Data: 10 00 00 00  returns 0x00 (0000ms, 0741ms total)
T0DB0 016:739 JLINK_ReadMemU32(0xE0001004, 0x0001 Items, ...) - Data: 41 CA B3 01  returns 0x01 (0000ms, 0741ms total)
T0DB0 016:739 JLINK_ReadMem (0x20000000, 0x0010 Bytes, ...) -- Read from C cache (16 bytes @ 0x20000000) - Data: 73 74 6D 33 32 5F 64 65 6D 6F 20 74 65 73 74 00  returns 0x00 (0000ms, 0741ms total)
T0DB0 016:740 JLINK_ReadMem (0x200004C4, 0x0020 Bytes, ...) -- Read from C cache (32 bytes @ 0x200004C4) - Data: 00 00 00 00 00 00 00 00 00 00 00 00 00 00 00 00 ...  returns 0x00 (0000ms, 0741ms total)
T0DB0 016:743 JLINK_ReadMem (0x08002F4C, 0x003C Bytes, ...) -- Read from C cache (60 bytes @ 0x08002F4C) - Data: 6B 46 10 22 1B 49 16 48 FF F7 B4 FA 05 46 00 BF ...  returns 0x00 (0000ms, 0741ms total)
T0F54 018:784 JLINK_Step() -- Read from C cache (2 bytes @ 0x08002F4C) -- Simulated  returns 0x00 (0001ms, 0742ms total)
T0F54 018:785 JLINK_ReadReg(R15 (PC))  returns 0x08002F4E (0000ms, 0742ms total)
T0F54 018:785 JLINK_ReadReg(XPSR)  returns 0x81000000 (0000ms, 0742ms total)
T0F54 018:785 JLINK_Step() -- Read from C cache (2 bytes @ 0x08002F4E) -- Simulated  returns 0x00 (0000ms, 0742ms total)
T0F54 018:785 JLINK_ReadReg(R15 (PC))  returns 0x08002F50 (0000ms, 0742ms total)
T0F54 018:785 JLINK_ReadReg(XPSR)  returns 0x01000000 (0000ms, 0742ms total)
T0F54 018:785 JLINK_Step() -- Read from C cache (2 bytes @ 0x08002F50) -- CPU_ReadMem(64 bytes @ 0x08002FC0) -- Updating C cache (64 bytes @ 0x08002FC0) -- Read from C cache (4 bytes @ 0x08002FC0) -- Simulated  returns 0x00 (0001ms, 0743ms total)
T0F54 018:786 JLINK_ReadReg(R15 (PC))  returns 0x08002F52 (0000ms, 0743ms total)
T0F54 018:786 JLINK_ReadReg(XPSR)  returns 0x01000000 (0000ms, 0743ms total)
T0F54 018:786 JLINK_Step() -- Read from C cache (2 bytes @ 0x08002F52) -- Read from C cache (4 bytes @ 0x08002FAC) -- Simulated  returns 0x00 (0000ms, 0743ms total)
T0F54 018:786 JLINK_ReadReg(R15 (PC))  returns 0x08002F54 (0000ms, 0743ms total)
T0F54 018:786 JLINK_ReadReg(XPSR)  returns 0x01000000 (0000ms, 0743ms total)
T0F54 018:786 JLINK_SetBPEx(Addr = 0x08002F58, Type = 0xFFFFFFF2)  returns 0x0000000B (0000ms, 0743ms total)
T0F54 018:786 JLINK_SetBPEx(Addr = 0x08001612, Type = 0xFFFFFFF2)  returns 0x0000000C (0000ms, 0743ms total)
T0F54 018:786 JLINK_SetBPEx(Addr = 0x08002F40, Type = 0xFFFFFFF2)  returns 0x0000000D (0000ms, 0743ms total)
T0F54 018:786 JLINK_Go() -- CPU_WriteMem(4 bytes @ 0xE0002000) -- CPU_WriteMem(4 bytes @ 0xE0002000) -- CPU_WriteMem(4 bytes @ 0xE0002000) -- CPU_ReadMem(4 bytes @ 0xE0001000) -- CPU_WriteMem(4 bytes @ 0xE0002008) -- CPU_WriteMem(4 bytes @ 0xE0001004) (0006ms, 0749ms total)
T0F54 018:894 JLINK_IsHalted()  returns TRUE (0003ms, 0752ms total)
T0F54 018:897 JLINK_Halt()  returns 0x00 (0000ms, 0749ms total)
T0F54 018:897 JLINK_IsHalted()  returns TRUE (0001ms, 0750ms total)
T0F54 018:898 JLINK_IsHalted()  returns TRUE (0000ms, 0749ms total)
T0F54 018:898 JLINK_IsHalted()  returns TRUE (0000ms, 0749ms total)
T0F54 018:898 JLINK_ReadReg(R15 (PC))  returns 0x08002F58 (0000ms, 0749ms total)
T0F54 018:898 JLINK_ReadReg(XPSR)  returns 0x61000000 (0000ms, 0749ms total)
T0F54 018:898 JLINK_ClrBPEx(BPHandle = 0x0000000B)  returns 0x00 (0000ms, 0749ms total)
T0F54 018:898 JLINK_ClrBPEx(BPHandle = 0x0000000C)  returns 0x00 (0000ms, 0749ms total)
T0F54 018:898 JLINK_ClrBPEx(BPHandle = 0x0000000D)  returns 0x00 (0000ms, 0749ms total)
T0F54 018:898 JLINK_ReadMemU32(0xE000ED30, 0x0001 Items, ...) -- CPU_ReadMem(4 bytes @ 0xE000ED30) - Data: 03 00 00 00  returns 0x01 (0000ms, 0749ms total)
T0F54 018:899 JLINK_ReadMemU32(0xE0001028, 0x0001 Items, ...) -- CPU_ReadMem(4 bytes @ 0xE0001028) - Data: 00 00 00 00  returns 0x01 (0000ms, 0750ms total)
T0F54 018:899 JLINK_ReadMemU32(0xE0001038, 0x0001 Items, ...) -- CPU_ReadMem(4 bytes @ 0xE0001038) - Data: 00 02 00 00  returns 0x01 (0001ms, 0751ms total)
T0F54 018:900 JLINK_ReadMemU32(0xE0001048, 0x0001 Items, ...) -- CPU_ReadMem(4 bytes @ 0xE0001048) - Data: 00 00 00 00  returns 0x01 (0001ms, 0752ms total)
T0F54 018:901 JLINK_ReadMemU32(0xE0001058, 0x0001 Items, ...) -- CPU_ReadMem(4 bytes @ 0xE0001058) - Data: 00 00 00 00  returns 0x01 (0000ms, 0752ms total)
T0F54 018:902 JLINK_Step() -- CPU_ReadMem(64 bytes @ 0x08002F40) -- Updating C cache (64 bytes @ 0x08002F40) -- Read from C cache (2 bytes @ 0x08002F58) -- CPU_ReadMem(4 bytes @ 0xE0001004) -- Simulated  returns 0x00 (0001ms, 0753ms total)
T0F54 018:903 JLINK_ReadReg(R15 (PC))  returns 0x08002F5A (0000ms, 0753ms total)
T0F54 018:903 JLINK_ReadReg(XPSR)  returns 0x61000000 (0000ms, 0753ms total)
T0F54 018:903 JLINK_ReadReg(R0)  returns 0x00000000 (0000ms, 0753ms total)
T0F54 018:903 JLINK_ReadReg(R1)  returns 0x200002C4 (0000ms, 0753ms total)
T0F54 018:903 JLINK_ReadReg(R2)  returns 0x00000000 (0001ms, 0754ms total)
T0F54 018:904 JLINK_ReadReg(R3)  returns 0x200004D4 (0000ms, 0754ms total)
T0F54 018:904 JLINK_ReadReg(R4)  returns 0x00000000 (0000ms, 0754ms total)
T0F54 018:904 JLINK_ReadReg(R5)  returns 0x00000000 (0000ms, 0754ms total)
T0F54 018:904 JLINK_ReadReg(R6)  returns 0x000000FE (0000ms, 0754ms total)
T0F54 018:904 JLINK_ReadReg(R7)  returns 0x200002C4 (0000ms, 0754ms total)
T0F54 018:904 JLINK_ReadReg(R8)  returns 0x200002C4 (0000ms, 0754ms total)
T0F54 018:904 JLINK_ReadReg(R9)  returns 0x20000160 (0000ms, 0754ms total)
T0F54 018:904 JLINK_ReadReg(R10)  returns 0x00000000 (0000ms, 0754ms total)
T0F54 018:904 JLINK_ReadReg(R11)  returns 0x00000000 (0000ms, 0754ms total)
T0F54 018:904 JLINK_ReadReg(R12)  returns 0x000000E0 (0000ms, 0754ms total)
T0F54 018:904 JLINK_ReadReg(R13 (SP))  returns 0x20000B50 (0000ms, 0754ms total)
T0F54 018:904 JLINK_ReadReg(R14)  returns 0x0800263D (0000ms, 0754ms total)
T0F54 018:904 JLINK_ReadReg(R15 (PC))  returns 0x08002F5A (0000ms, 0754ms total)
T0F54 018:904 JLINK_ReadReg(XPSR)  returns 0x61000000 (0000ms, 0754ms total)
T0F54 018:904 JLINK_ReadReg(MSP)  returns 0x20000B50 (0000ms, 0754ms total)
T0F54 018:904 JLINK_ReadReg(PSP)  returns 0x20001000 (0000ms, 0754ms total)
T0F54 018:904 JLINK_ReadReg(CFBP)  returns 0x00000000 (0000ms, 0754ms total)
T0DB0 018:904 JLINK_ReadMem (0x20000B54, 0x0004 Bytes, ...) -- CPU_ReadMem(64 bytes @ 0x20000B40) -- Updating C cache (64 bytes @ 0x20000B40) -- Read from C cache (4 bytes @ 0x20000B54) - Data: 6D 01 00 08  returns 0x00 (0001ms, 0755ms total)
T0DB0 018:905 JLINK_ReadMem (0x20000B50, 0x0004 Bytes, ...) -- Read from C cache (4 bytes @ 0x20000B50) - Data: 10 00 00 00  returns 0x00 (0000ms, 0755ms total)
T0DB0 018:905 JLINK_ReadMemU32(0xE0001004, 0x0001 Items, ...) - Data: B2 CD B3 01  returns 0x01 (0000ms, 0755ms total)
T0DB0 018:905 JLINK_ReadMem (0x20000000, 0x0010 Bytes, ...) -- CPU_ReadMem(64 bytes @ 0x20000000) -- Updating C cache (64 bytes @ 0x20000000) -- Read from C cache (16 bytes @ 0x20000000) - Data: 73 74 6D 33 32 5F 64 65 6D 6F 20 74 65 73 74 00  returns 0x00 (0002ms, 0757ms total)
T0DB0 018:907 JLINK_ReadMem (0x200004C4, 0x0020 Bytes, ...) -- CPU_ReadMem(64 bytes @ 0x200004C0) -- Updating C cache (64 bytes @ 0x200004C0) -- Read from C cache (32 bytes @ 0x200004C4) - Data: 73 74 6D 33 32 5F 64 65 6D 6F 20 74 65 73 74 00 ...  returns 0x00 (0001ms, 0758ms total)
T0DB0 018:911 JLINK_ReadMem (0x08002F5A, 0x0002 Bytes, ...) -- Read from C cache (2 bytes @ 0x08002F5A) - Data: 00 BF  returns 0x00 (0000ms, 0758ms total)
T0DB0 018:911 JLINK_ReadMem (0x08002F5C, 0x003C Bytes, ...) -- CPU_ReadMem(64 bytes @ 0x08002F80) -- Updating C cache (64 bytes @ 0x08002F80) -- Read from C cache (60 bytes @ 0x08002F5C) - Data: 15 48 00 78 18 B1 29 46 14 A0 FE F7 D1 FA 00 BF ...  returns 0x00 (0001ms, 0759ms total)
T0F54 025:411 JLINK_Step() -- Read from C cache (2 bytes @ 0x08002F5A) -- Simulated  returns 0x00 (0002ms, 0761ms total)
T0F54 025:413 JLINK_ReadReg(R15 (PC))  returns 0x08002F5C (0000ms, 0761ms total)
T0F54 025:413 JLINK_ReadReg(XPSR)  returns 0x61000000 (0000ms, 0761ms total)
T0F54 025:413 JLINK_ReadReg(R0)  returns 0x00000000 (0000ms, 0761ms total)
T0F54 025:413 JLINK_ReadReg(R1)  returns 0x200002C4 (0000ms, 0761ms total)
T0F54 025:413 JLINK_ReadReg(R2)  returns 0x00000000 (0000ms, 0761ms total)
T0F54 025:413 JLINK_ReadReg(R3)  returns 0x200004D4 (0000ms, 0761ms total)
T0F54 025:413 JLINK_ReadReg(R4)  returns 0x00000000 (0000ms, 0761ms total)
T0F54 025:413 JLINK_ReadReg(R5)  returns 0x00000000 (0000ms, 0761ms total)
T0F54 025:413 JLINK_ReadReg(R6)  returns 0x000000FE (0000ms, 0761ms total)
T0F54 025:413 JLINK_ReadReg(R7)  returns 0x200002C4 (0000ms, 0761ms total)
T0F54 025:413 JLINK_ReadReg(R8)  returns 0x200002C4 (0000ms, 0761ms total)
T0F54 025:413 JLINK_ReadReg(R9)  returns 0x20000160 (0000ms, 0761ms total)
T0F54 025:413 JLINK_ReadReg(R10)  returns 0x00000000 (0000ms, 0761ms total)
T0F54 025:413 JLINK_ReadReg(R11)  returns 0x00000000 (0000ms, 0761ms total)
T0F54 025:413 JLINK_ReadReg(R12)  returns 0x000000E0 (0000ms, 0761ms total)
T0F54 025:413 JLINK_ReadReg(R13 (SP))  returns 0x20000B50 (0000ms, 0761ms total)
T0F54 025:413 JLINK_ReadReg(R14)  returns 0x0800263D (0000ms, 0761ms total)
T0F54 025:413 JLINK_ReadReg(R15 (PC))  returns 0x08002F5C (0000ms, 0761ms total)
T0F54 025:413 JLINK_ReadReg(XPSR)  returns 0x61000000 (0000ms, 0761ms total)
T0F54 025:413 JLINK_ReadReg(MSP)  returns 0x20000B50 (0000ms, 0761ms total)
T0F54 025:413 JLINK_ReadReg(PSP)  returns 0x20001000 (0000ms, 0761ms total)
T0F54 025:413 JLINK_ReadReg(CFBP)  returns 0x00000000 (0000ms, 0761ms total)
T0DB0 025:414 JLINK_ReadMem (0x20000B54, 0x0004 Bytes, ...) -- Read from C cache (4 bytes @ 0x20000B54) - Data: 6D 01 00 08  returns 0x00 (0000ms, 0761ms total)
T0DB0 025:414 JLINK_ReadMem (0x20000B50, 0x0004 Bytes, ...) -- Read from C cache (4 bytes @ 0x20000B50) - Data: 10 00 00 00  returns 0x00 (0000ms, 0761ms total)
T0DB0 025:414 JLINK_ReadMemU32(0xE0001004, 0x0001 Items, ...) - Data: B2 CD B3 01  returns 0x01 (0000ms, 0761ms total)
T0DB0 025:415 JLINK_ReadMem (0x20000000, 0x0010 Bytes, ...) -- Read from C cache (16 bytes @ 0x20000000) - Data: 73 74 6D 33 32 5F 64 65 6D 6F 20 74 65 73 74 00  returns 0x00 (0000ms, 0761ms total)
T0DB0 025:415 JLINK_ReadMem (0x200004C4, 0x0020 Bytes, ...) -- Read from C cache (32 bytes @ 0x200004C4) - Data: 73 74 6D 33 32 5F 64 65 6D 6F 20 74 65 73 74 00 ...  returns 0x00 (0000ms, 0761ms total)
T0DB0 025:418 JLINK_ReadMem (0x08002F5C, 0x003C Bytes, ...) -- Read from C cache (60 bytes @ 0x08002F5C) - Data: 15 48 00 78 18 B1 29 46 14 A0 FE F7 D1 FA 00 BF ...  returns 0x00 (0000ms, 0761ms total)
T0F54 026:566 JLINK_Step() -- Read from C cache (2 bytes @ 0x08002F5C) -- Read from C cache (4 bytes @ 0x08002FB4) -- Simulated  returns 0x00 (0001ms, 0762ms total)
T0F54 026:567 JLINK_ReadReg(R15 (PC))  returns 0x08002F5E (0000ms, 0762ms total)
T0F54 026:567 JLINK_ReadReg(XPSR)  returns 0x61000000 (0000ms, 0762ms total)
T0F54 026:567 JLINK_Step() -- Read from C cache (2 bytes @ 0x08002F5E) -- Read from C cache (1 bytes @ 0x20000012) -- Simulated  returns 0x00 (0000ms, 0762ms total)
T0F54 026:567 JLINK_ReadReg(R15 (PC))  returns 0x08002F60 (0000ms, 0762ms total)
T0F54 026:567 JLINK_ReadReg(XPSR)  returns 0x61000000 (0000ms, 0762ms total)
T0F54 026:567 JLINK_Step() -- Read from C cache (2 bytes @ 0x08002F60) -- Simulated  returns 0x00 (0000ms, 0762ms total)
T0F54 026:567 JLINK_ReadReg(R15 (PC))  returns 0x08002F62 (0000ms, 0762ms total)
T0F54 026:567 JLINK_ReadReg(XPSR)  returns 0x61000000 (0000ms, 0762ms total)
T0F54 026:567 JLINK_Step() -- Read from C cache (2 bytes @ 0x08002F62) -- Simulated  returns 0x00 (0000ms, 0762ms total)
T0F54 026:567 JLINK_ReadReg(R15 (PC))  returns 0x08002F64 (0000ms, 0762ms total)
T0F54 026:567 JLINK_ReadReg(XPSR)  returns 0x61000000 (0000ms, 0762ms total)
T0F54 026:567 JLINK_Step() -- Read from C cache (2 bytes @ 0x08002F64) -- Simulated  returns 0x00 (0000ms, 0762ms total)
T0F54 026:567 JLINK_ReadReg(R15 (PC))  returns 0x08002F66 (0000ms, 0762ms total)
T0F54 026:567 JLINK_ReadReg(XPSR)  returns 0x61000000 (0001ms, 0763ms total)
T0F54 026:568 JLINK_SetBPEx(Addr = 0x08002F6A, Type = 0xFFFFFFF2)  returns 0x0000000E (0000ms, 0763ms total)
T0F54 026:568 JLINK_SetBPEx(Addr = 0x08001612, Type = 0xFFFFFFF2)  returns 0x0000000F (0000ms, 0763ms total)
T0F54 026:568 JLINK_SetBPEx(Addr = 0x08002F40, Type = 0xFFFFFFF2)  returns 0x00000010 (0000ms, 0763ms total)
T0F54 026:568 JLINK_Go() -- CPU_WriteMem(4 bytes @ 0xE0002000) -- CPU_WriteMem(4 bytes @ 0xE0002000) -- CPU_WriteMem(4 bytes @ 0xE0002000) -- CPU_ReadMem(4 bytes @ 0xE0001000) -- CPU_WriteMem(4 bytes @ 0xE0002008) -- CPU_WriteMem(4 bytes @ 0xE0001004) (0005ms, 0768ms total)
T0F54 026:674 JLINK_IsHalted()  returns TRUE (0004ms, 0772ms total)
T0F54 026:678 JLINK_Halt()  returns 0x00 (0000ms, 0768ms total)
T0F54 026:678 JLINK_IsHalted()  returns TRUE (0000ms, 0768ms total)
T0F54 026:678 JLINK_IsHalted()  returns TRUE (0000ms, 0768ms total)
T0F54 026:678 JLINK_IsHalted()  returns TRUE (0000ms, 0768ms total)
T0F54 026:678 JLINK_ReadReg(R15 (PC))  returns 0x08002F6A (0000ms, 0768ms total)
T0F54 026:678 JLINK_ReadReg(XPSR)  returns 0x61000000 (0000ms, 0768ms total)
T0F54 026:678 JLINK_ClrBPEx(BPHandle = 0x0000000E)  returns 0x00 (0001ms, 0769ms total)
T0F54 026:679 JLINK_ClrBPEx(BPHandle = 0x0000000F)  returns 0x00 (0000ms, 0769ms total)
